# Hz S  dB   R 50
10000000 -23.201548 -169.94086 -1.1900878 -59.481037 -30.446732 30.154221 -44.267838 174.63034
-1.184616 -59.480667 -20.924883 43.152962 -44.361664 174.74167 -28.700338 24.527796
-30.435957 30.123255 -44.358273 174.87062 -23.237875 -170.12582 -1.1914054 -59.494411
-44.323513 173.81068 -28.729776 24.588776 -1.196254 -59.490204 -20.774359 43.359333
20000000 -20.367756 -166.69409 -1.2959185 -118.05524 -26.014469 -24.700146 -43.416969 106.56108
-1.2904018 -118.05269 -19.830902 -56.868557 -43.430553 107.48419 -24.477684 -34.961781
-26.008493 -24.717361 -43.473301 107.52448 -20.410887 -167.19792 -1.2984295 -118.06229
-43.430061 106.62032 -24.475534 -34.971458 -1.3017981 -118.05144 -19.758135 -57.281219
30000000 -19.363682 -178.9034 -1.3925772 -176.48102 -25.221701 -77.357544 -44.591942 83.54924
-1.3868256 -176.4854 -22.164057 -159.71454 -44.314762 84.051582 -23.86758 -96.138298
-25.218122 -77.364143 -44.349823 83.844612 -19.522715 -179.96417 -1.3985226 -176.49109
-44.566494 83.697861 -23.864052 -96.138397 -1.4000771 -176.4886 -22.022356 -161.43068
40000000 -19.671591 173.20288 -1.4818205 125.21637 -27.313559 -121.89629 -38.65308 46.031883
-1.4753152 125.21139 -24.323307 70.655609 -38.577431 45.286331 -26.507673 -162.19817
-27.313749 -121.91815 -38.566196 45.352005 -19.927206 172.70911 -1.4907502 125.21832
-38.645222 46.041264 -26.507891 -162.21758 -1.4908546 125.2168 -23.770336 69.987457
50000000 -20.030622 168.0872 -1.5620421 66.902023 -31.290823 -128.69017 -35.480083 -17.833694
-1.5562853 66.900398 -22.336399 -52.386295 -35.452679 -18.350533 -33.643299 89.848701
-31.284807 -128.70529 -35.458561 -18.44248 -20.280428 168.3613 -1.5713069 66.916893
-35.475933 -17.853455 -33.635387 89.831619 -1.5709532 66.908913 -21.983339 -50.276264
60000000 -20.615822 164.90839 -1.6602535 8.5437212 -25.530729 -124.54302 -34.562325 -74.643044
-1.6561027 8.5434084 -21.292418 -157.72568 -34.545078 -75.494087 -25.453129 -49.300262
-25.532644 -124.543 -34.546356 -75.459961 -20.743048 165.46671 -1.6693922 8.5637207
-34.55825 -74.664368 -25.449097 -49.298309 -1.666844 8.5512266 -21.219522 -156.31554
70000000 -20.618496 164.28412 -1.7892326 -49.734657 -19.895525 -166.17659 -32.272003 -122.3899
-1.7843143 -49.735764 -22.164646 100.50028 -32.319801 -123.47009 -18.765997 -119.50806
-19.896381 -166.17825 -32.323608 -123.45761 -20.777887 163.9785 -1.7964714 -49.724186
-32.269196 -122.40201 -18.764156 -119.50296 -1.7957369 -49.733444 -22.028324 99.777374
80000000 -20.712515 153.86935 -1.9558985 -107.82949 -16.56999 141.80222 -28.896132 175.78151
-1.9523667 -107.827 -25.529743 -7.0350428 -29.009094 174.80923 -14.97151 178.72171
-16.57333 141.80319 -29.010183 174.81279 -21.088875 153.82133 -1.9645604 -107.81712
-28.893105 175.79501 -14.967216 178.72319 -1.9633919 -107.82444 -24.775114 -8.1424561
90000000 -24.523567 145.03571 -2.1495497 -165.39845 -14.730093 87.458481 -27.083355 103.29289
-2.1462429 -165.39633 -28.535885 -153.07109 -27.244707 102.43178 -12.828266 118.47004
-14.733743 87.456078 -27.245068 102.43687 -25.23781 148.19159 -2.1600211 -165.37476
-27.081287 103.28692 -12.822335 118.47277 -2.1577661 -165.38412 -27.839739 -144.17314
100000000 -26.139818 -164.08847 -2.2819438 137.65756 -13.877429 32.871815 -27.25601 30.062559
-2.2783239 137.66206 -23.490604 83.163765 -27.466967 29.353432 -11.989627 59.781361
-13.881249 32.865673 -27.467819 29.36002 -25.339136 -159.04716 -2.2908251 137.69084
-27.25395 30.0543 -11.982964 59.777878 -2.2872899 137.67841 -24.080767 88.284416
110000000 -19.765892 -162.67294 -2.3032987 80.759659 -13.808598 -22.215061 -29.472492 -35.374634
-2.2993603 80.762627 -21.367004 -6.688612 -29.769024 -35.627785 -12.096597 3.2178593
-13.810936 -22.223459 -29.767551 -35.624016 -19.293756 -162.74413 -2.3084605 80.778801
-29.471209 -35.378094 -12.089914 3.2136905 -2.3063805 80.761269 -21.875475 -5.1352029
120000000 -17.353493 177.7328 -2.2597287 23.441322 -14.64747 -78.145088 -32.16758 -74.842957
-2.2560925 23.444683 -23.120609 -94.688232 -32.451653 -73.50457 -13.036538 -52.314285
-14.650548 -78.154892 -32.452229 -73.501274 -17.124428 177.38629 -2.2656915 23.447638
-32.165859 -74.854271 -13.03059 -52.317608 -2.264425 23.430845 -23.401823 -93.957191
130000000 -17.132233 158.29269 -2.2117629 -34.323593 -16.735411 -134.40135 -29.556953 -109.03737
-2.2080836 -34.319328 -29.301153 151.43477 -29.611298 -107.76283 -15.122313 -106.7373
-16.740152 -134.41162 -29.609106 -107.75175 -16.936028 158.67598 -2.2183988 -34.317345
-29.558542 -109.04779 -15.117217 -106.73239 -2.2175567 -34.328117 -29.863348 156.10657
140000000 -18.344154 143.33734 -2.192205 -92.384872 -20.900681 170.3795 -26.752922 -168.99884
-2.1888211 -92.381905 -28.425169 -13.768371 -26.769129 -168.26064 -18.824183 -158.41069
-20.904917 170.36845 -26.765959 -168.26193 -17.92466 143.67413 -2.1970842 -92.391457
-26.755001 -169.00394 -18.818977 -158.40143 -2.1970053 -92.4002 -29.60586 -21.860617
150000000 -20.343143 136.72542 -2.2089932 -150.58229 -31.039854 126.88789 -25.905735 127.26241
-2.2060027 -150.58109 -24.260155 -128.28223 -25.914509 127.70923 -26.567884 157.40259
-31.043692 126.87135 -25.909786 127.71222 -19.75614 134.49619 -2.2162232 -150.61197
-25.907053 127.25924 -26.561972 157.41577 -2.2173257 -150.62093 -24.135527 -136.6949
160000000 -21.807554 139.93706 -2.2666481 151.20789 -28.781273 -148.21187 -25.681265 70.745651
-2.2633753 151.20612 -22.707386 126.79582 -25.706127 70.905449 -29.800936 -121.85034
-28.785381 -148.22688 -25.702099 70.914764 -21.642254 134.77596 -2.2773831 151.17793
-25.68325 70.740341 -29.792538 -121.84749 -2.2787268 151.16808 -22.025143 121.89963
170000000 -21.848927 138.76186 -2.3623507 93.089951 -21.387276 162.72589 -24.459381 16.374208
-2.3597834 93.089951 -22.589006 21.930378 -24.522305 16.445702 -20.069447 -160.8658
-21.391581 162.71255 -24.519093 16.449028 -22.231743 135.07259 -2.376255 93.082336
-24.462736 16.370632 -20.063345 -160.85979 -2.3775253 93.07325 -21.814373 20.516077
180000000 -24.187864 126.73102 -2.5002394 35.292126 -18.697929 106.44003 -23.004438 -45.215317
-2.4969723 35.296257 -23.074478 -88.830711 -23.093884 -45.075832 -16.3561 144.26537
-18.701822 106.43267 -23.092075 -45.075752 -24.819744 125.09451 -2.5130293 35.300571
-23.005167 -45.204975 -16.350626 144.27449 -2.513586 35.293789 -22.427801 -87.693893
190000000 -30.878738 170.16537 -2.6172328 -21.934849 -17.931131 49.346008 -22.466433 -110.50985
-2.6143022 -21.931553 -22.174316 160.95096 -22.573313 -110.24699 -15.114679 87.121613
-17.934376 49.333942 -22.570415 -110.23836 -31.401596 177.24246 -2.6302338 -21.913784
-22.468004 -110.51861 -15.108786 87.128525 -2.6310928 -21.923347 -21.795803 162.92795
200000000 -21.78281 -160.64503 -2.6397517 -78.990158 -18.364132 -8.7315865 -22.834146 -173.21527
-2.6371098 -78.986382 -21.144644 65.300919 -22.955313 -172.76912 -15.628625 31.989048
-18.366837 -8.7447252 -22.95071 -172.75996 -21.475733 -158.64738 -2.6508408 -78.954666
-22.836584 -173.2124 -15.622721 31.998985 -2.651871 -78.963287 -20.920053 67.92276
210000000 -17.806036 178.91714 -2.5984197 -136.46626 -19.930115 -69.760452 -23.416 130.63722
-2.5948846 -136.46051 -22.371586 -18.74139 -23.525152 131.44647 -17.419861 -17.686802
-19.93326 -69.768753 -23.523636 131.44551 -17.502836 179.61609 -2.6058676 -136.437
-23.417944 130.64877 -17.414368 -17.677124 -2.6065357 -136.44679 -22.25635 -15.322786
220000000 -16.733727 158.38101 -2.5773892 165.59714 -22.859865 -137.7211 -23.163723 77.876724
-2.5735555 165.60112 -28.008528 -92.227768 -23.224094 78.86142 -19.850449 -58.512318
-22.863171 -137.72371 -23.221983 78.872795 -16.451241 158.24658 -2.582972 165.60928
-23.164846 77.876625 -19.846292 -58.496727 -2.5845261 165.5995 -27.962168 -86.530113
230000000 -16.913687 141.72496 -2.6027277 107.54153 -26.70652 136.93825 -22.372908 21.130051
-2.6001875 107.5458 -35.165813 -69.279816 -22.391434 22.069056 -21.543495 -90.916023
-26.710796 136.92332 -22.387882 22.077162 -16.652813 141.20955 -2.6083472 107.5339
-22.376768 21.137915 -21.539209 -90.893517 -2.6110854 107.52668 -33.632416 -72.866318
240000000 -17.816441 127.25214 -2.6618738 49.573231 -27.108109 33.884945 -22.017963 -38.800228
-2.6593664 49.57827 -25.648777 -121.28027 -22.002588 -37.968723 -22.248558 -126.23286
-27.113678 33.881744 -21.999849 -37.963238 -17.514242 125.99599 -2.6703875 49.551151
-22.021074 -38.793354 -22.244032 -126.21866 -2.672663 49.542812 -25.114613 -126.3629
250000000 -19.845762 116.10802 -2.7328045 -8.2255383 -24.614464 -46.518703 -22.164106 -96.714294
-2.730571 -8.2208166 -22.225321 150.13162 -22.122383 -96.083427 -23.178442 -165.51099
-24.618668 -46.524807 -22.11904 -96.075104 -19.648834 112.84691 -2.7467501 -8.2454367
-22.166895 -96.70974 -23.173243 -165.49875 -2.7477171 -8.2550592 -21.436371 147.14276
260000000 -22.528294 115.39975 -2.794241 -65.907471 -23.171968 -107.59045 -22.135645 -150.994
-2.7904966 -65.903137 -20.434261 55.729774 -22.087463 -150.65472 -24.140432 153.58852
-23.177538 -107.60723 -22.08843 -150.65765 -22.920788 111.72378 -2.8094554 -65.88353
-22.137453 -150.98874 -24.137646 153.59297 -2.8104811 -65.894577 -19.712238 56.417973
270000000 -24.432684 122.5899 -2.844624 -123.61195 -22.933945 -157.55077 -21.590523 154.64195
-2.8413522 -123.60625 -19.604548 -38.843182 -21.572535 154.80701 -24.806406 104.67574
-22.93741 -157.56068 -21.572147 154.81137 -24.876354 122.96011 -2.8552995 -123.56643
-21.590351 154.6452 -24.801405 104.68078 -2.8556254 -123.57629 -19.33453 -36.640026
280000000 -26.682104 139.34157 -2.9046497 178.68916 -23.070568 162.65442 -20.900032 98.103607
-2.9014537 178.69498 -19.41679 -133.14441 -20.91637 98.290756 -25.406723 37.342072
-23.075336 162.6433 -20.91534 98.298698 -26.745947 138.89029 -2.9107506 178.70966
-20.903046 98.101509 -25.403463 37.337963 -2.9126935 178.70065 -19.5224 -133.06122
290000000 -24.024677 169.03816 -2.9597964 121.09655 -22.403767 128.44954 -20.263683 40.398102
-2.9563935 121.1033 -19.7997 137.69145 -20.297771 40.774288 -24.774794 -52.180393
-22.408085 128.44032 -20.297173 40.768894 -24.537447 169.25659 -2.9689584 121.09569
-20.266354 40.404404 -24.771534 -52.176277 -2.9711168 121.08714 -19.739719 134.58499
300000000 -20.124249 163.73824 -3.0003064 63.484165 -20.958906 90.556984 -19.662447 -18.416185
-2.9975014 63.489292 -21.839481 59.058968 -19.685888 -17.816746 -21.786581 -141.72655
-20.962833 90.552727 -19.683558 -17.807756 -20.342743 166.80032 -3.0130525 63.500706
-19.666042 -18.415955 -21.781973 -141.72064 -3.0150752 63.4884 -21.16275 54.845795
310000000 -18.837456 150.506 -3.0485921 5.8253422 -19.740923 46.59137 -19.269468 -78.462677
-3.0455751 5.8300648 -27.039421 1.8516346 -19.248812 -77.755615 -19.133976 141.5661
-19.746735 46.583351 -19.24892 -77.743996 -18.526903 153.2345 -3.057574 5.8659439
-19.272022 -78.464928 -19.13063 141.56937 -3.0586915 5.8513947 -25.30514 -2.6004715
320000000 -18.290682 143.09576 -3.0912194 -51.752289 -19.26231 -0.73801678 -19.199938 -138.06155
-3.0880873 -51.748344 -29.448689 -7.7951217 -19.128477 -137.53333 -18.105215 73.45565
-19.267769 -0.74351275 -19.127691 -137.52747 -17.775915 141.74771 -3.0975373 -51.736942
-19.200823 -138.06186 -18.100052 73.462326 -3.0976355 -51.749977 -27.340372 -17.326391
330000000 -17.229311 131.74103 -3.1152816 -109.39605 -19.669508 -49.262081 -19.237394 164.49113
-3.1118817 -109.39145 -25.685032 -62.676495 -19.156267 164.60185 -18.767679 12.151906
-19.673502 -49.266758 -19.155437 164.60899 -17.186169 128.23236 -3.12591 -109.39625
-19.237667 164.48993 -18.762596 12.155868 -3.1254904 -109.41099 -23.989019 -64.918709
340000000 -17.418915 111.67838 -3.1523862 -167.19308 -21.221886 -97.155472 -19.026436 108.4675
-3.149786 -167.18887 -24.065477 -153.33426 -18.98514 108.31448 -21.02335 -40.671127
-21.226765 -97.171265 -18.984022 108.32067 -17.67087 109.57576 -3.1641212 -167.17638
-19.026457 108.46481 -21.017776 -40.660896 -3.1634293 -167.1907 -23.237726 -148.51537
350000000 -20.266155 92.296814 -3.2123322 135.07675 -24.471876 -139.48543 -18.547112 51.306915
-3.2104373 135.08141 -22.381458 105.3318 -18.552782 51.210964 -24.344173 -79.886406
-24.476046 -139.48819 -18.550955 51.21542 -20.340755 91.413437 -3.2225773 135.09019
-18.548416 51.301987 -24.33917 -79.873413 -3.2224591 135.07376 -22.638695 106.06743
360000000 -26.425322 96.488075 -3.2634177 77.492783 -29.393381 -154.83479 -18.16527 -7.818552
-3.2608869 77.495445 -20.678177 8.6471806 -18.184059 -7.7127709 -27.547176 -105.81123
-29.396334 -154.85205 -18.182959 -7.7036381 -26.140842 90.63063 -3.2782557 77.480537
-18.166193 -7.8248262 -27.545498 -105.79029 -3.2777529 77.461388 -20.506672 4.2944951
370000000 -26.255157 147.81943 -3.2975543 19.863327 -26.630919 -146.72836 -18.103844 -66.799698
-3.296701 19.866903 -20.047731 -82.575424 -18.103125 -66.596489 -30.981441 -106.53704
-26.638292 -146.73524 -18.101463 -66.586227 -27.88298 146.17253 -3.3201072 19.870754
-18.104744 -66.808151 -30.972973 -106.49063 -3.3190567 19.852476 -19.280516 -85.892059
380000000 -21.315865 151.35672 -3.3408096 -37.887882 -21.833002 176.77219 -18.083879 -123.58646
-3.340342 -37.884087 -20.782431 -170.29861 -18.06019 -123.5294 -25.309498 -99.34285
-21.838404 176.76189 -18.057137 -123.5221 -21.955833 155.24524 -3.361726 -37.825123
-18.084688 -123.59271 -25.299253 -99.329132 -3.361263 -37.84296 -19.898878 -170.81117
390000000 -19.004446 136.31378 -3.4047537 -95.644516 -19.285967 125.22173 -17.707493 -179.91119
-3.4037287 -95.64048 -23.36285 108.67449 -17.700386 179.88788 -19.680273 -141.06308
-19.290806 125.21648 -17.697886 179.89862 -19.224848 138.89229 -3.4181542 -95.562675
-17.709375 -179.91562 -19.672445 -141.06039 -3.4185407 -95.580711 -22.74313 109.31001
400000000 -19.377701 119.29472 -3.4869719 -153.23442 -18.448015 68.897469 -17.224554 121.35132
-3.4848413 -153.22929 -30.282923 48.663586 -17.261757 121.1076 -16.852839 165.33438
-18.451296 68.885399 -17.260027 121.11349 -19.583706 120.85676 -3.4953785 -153.17636
-17.226892 121.34541 -16.847902 165.33969 -3.4969392 -153.19168 -30.378946 46.189037
410000000 -21.35318 118.89719 -3.5477607 149.43193 -18.990919 10.094231 -17.076534 61.417614
-3.5456784 149.43718 -31.561264 79.780365 -17.145369 61.339443 -16.215353 110.44316
-18.994814 10.087796 -17.143349 61.348133 -21.587173 121.70774 -3.5553341 149.47444
-17.078278 61.413475 -16.211081 110.45121 -3.5566375 149.4581 -32.627834 90.13623
420000000 -20.108223 128.44565 -3.5501859 92.009247 -20.823107 -52.670734 -17.190199 3.140898
-3.5484395 92.014694 -25.797644 29.317951 -17.262602 3.2661161 -17.399464 61.60955
-20.826572 -52.675335 -17.260077 3.2756541 -19.884811 131.02159 -3.5565495 92.043465
-17.19236 3.1405303 -17.394621 61.621429 -3.5579453 92.026268 -26.544645 35.520519
430000000 -18.174234 114.69331 -3.5505972 34.126492 -24.038563 -126.59883 -17.13232 -53.048992
-3.5476704 34.134266 -27.146862 -44.684898 -17.192934 -52.850872 -19.172625 28.272087
-24.042843 -126.60294 -17.191639 -52.847858 -17.838552 114.7188 -3.5564907 34.128227
-17.133167 -53.052979 -19.167791 28.28949 -3.5565624 34.115387 -28.529325 -43.330971
440000000 -19.279818 90.292152 -3.6259604 -23.914198 -26.442993 133.63142 -16.729391 -110.00774
-3.6237402 -23.906597 -35.937374 -178.65892 -16.79557 -109.79095 -18.336079 3.6092329
-26.446915 133.6273 -16.793613 -109.78712 -18.988285 87.853981 -3.6390128 -23.936893
-16.729261 -110.01432 -18.328613 3.6211724 -3.6378601 -23.950794 -35.319031 156.00484
450000000 -25.52462 77.325089 -3.7526746 -81.493507 -23.530418 37.34919 -16.359722 -169.41241
-3.7503903 -81.486115 -27.118378 29.475931 -16.437422 -169.06291 -16.198988 -36.588028
-23.536789 37.345959 -16.43651 -169.05594 -25.552656 68.850967 -3.7719927 -81.500847
-16.360449 -169.41776 -16.193266 -36.578453 -3.7709868 -81.515015 -25.613968 29.788031
460000000 -27.150141 151.35445 -3.8357835 -138.62703 -20.181368 -33.765736 -16.360498 130.29533
-3.8345397 -138.61873 -23.246027 -57.766441 -16.431274 130.89085 -15.314744 -86.173874
-20.1868 -33.765614 -16.429522 130.89734 -28.836861 158.052 -3.8559027 -138.59027
-16.360968 130.29311 -15.307735 -86.16478 -3.8547463 -138.60696 -22.309742 -55.568268
470000000 -20.001326 150.08806 -3.8506916 164.21135 -18.180773 -95.27594 -16.704628 71.853958
-3.8493173 164.21681 -22.48984 -143.43825 -16.736389 72.635071 -15.669076 -135.87497
-18.186529 -95.28035 -16.736078 72.644661 -20.398357 154.18687 -3.8691108 164.28203
-16.705399 71.846634 -15.66241 -135.86432 -3.8667998 164.26471 -21.897856 -141.73563
480000000 -16.981777 130.84665 -3.8376319 106.76728 -17.471258 -152.75606 -16.960024 16.636223
-3.8362019 106.77459 -23.788336 130.7182 -16.928951 17.333107 -16.550407 176.79883
-17.475863 -152.76424 -16.927717 17.338934 -17.29018 133.36708 -3.8517001 106.84841
-16.960381 16.631975 -16.543564 176.80527 -3.8503246 106.83329 -23.104145 129.63902
490000000 -16.086073 106.99149 -3.8318715 49.027798 -18.021862 153.40468 -16.744253 -37.840683
-3.8306074 49.035152 -28.699392 42.445408 -16.687832 -37.510468 -17.549017 128.35909
-18.026821 153.40031 -16.685432 -37.500668 -16.411114 109.30486 -3.8396928 49.11298
-16.744892 -37.841404 -17.542263 128.36534 -3.8391643 49.097961 -26.873119 39.706711
500000000 -17.617376 83.087502 -3.8574598 -8.8303833 -19.836451 106.21166 -16.298946 -94.253502
-3.8559148 -8.822979 -37.217735 -131.41081 -16.265745 -94.198364 -19.110605 72.589424
-19.841112 106.1986 -16.263386 -94.196953 -17.846109 86.074577 -3.8623757 -8.7632399
-16.299109 -94.257851 -19.10396 72.592621 -3.8619184 -8.7767086 -36.769928 -94.119316
510000000 -21.648016 73.64724 -3.902554 -66.609123 -22.354202 72.728828 -15.923502 -151.91362
-3.9014587 -66.601707 -27.895332 110.80508 -15.925115 -151.97794 -22.534386 0.09776973
-22.359697 72.725235 -15.924925 -151.97044 -21.615114 76.223953 -3.9040723 -66.580231
-15.9253 -151.92126 -22.531296 0.095111877 -3.9051602 -66.59935 -29.191811 109.55251
520000000 -23.902195 91.036568 -3.9491675 -124.44569 -23.03956 54.575363 -15.585733 149.99341
-3.9477468 -124.43652 -27.349316 40.017109 -15.615023 149.98195 -25.977472 -119.76978
-23.046604 54.566658 -15.614377 149.98912 -24.048567 90.853439 -3.9555376 -124.4342
-15.585939 149.98289 -25.974215 -119.78608 -3.9553709 -124.45103 -27.33107 33.434994
530000000 -23.851076 93.649078 -4.0333996 177.67148 -21.050217 29.48818 -15.285979 91.113335
-4.0321679 177.68034 -34.763474 10.696015 -15.326096 91.209961 -20.623665 127.15762
-21.055424 29.479151 -15.324662 91.215347 -24.339081 96.125587 -4.0418882 177.69727
-15.286146 91.103989 -20.617977 127.1625 -4.0427432 177.68015 -34.075844 -11.519589
540000000 -26.571571 104.32956 -4.153245 120.0978 -18.94837 -7.8655128 -15.136391 31.63727
-4.1516623 120.10841 -27.603489 34.603035 -15.176427 31.800838 -16.899248 49.328114
-18.952757 -7.8627176 -15.174873 31.804831 -26.455082 110.85115 -4.1593485 120.1256
-15.137861 31.629961 -16.893946 49.325211 -4.1611791 120.1071 -29.217577 30.707161
550000000 -24.15484 137.63765 -4.2468519 62.904327 -17.486938 -50.944515 -15.175395 -27.62571
-4.2460666 62.913944 -22.395678 -26.385786 -15.213756 -27.43965 -15.541377 -19.588976
-17.490524 -50.94915 -15.211801 -27.438915 -23.687735 138.94238 -4.25213 62.902832
-15.176468 -27.636898 -15.536123 -19.591742 -4.253932 62.888271 -22.753462 -28.257967
560000000 -19.825302 136.1131 -4.2866373 5.7619452 -16.684254 -96.704208 -15.348639 -85.909843
-4.2855639 5.7753835 -21.187777 -99.181732 -15.386096 -85.708801 -15.703006 -84.519661
-16.68803 -96.710602 -15.384575 -85.706177 -19.721529 137.23967 -4.2945428 5.7435298
-15.35009 -85.912231 -15.69874 -84.518608 -4.2963758 5.732193 -20.890015 -99.721733
570000000 -17.229486 124.30292 -4.2883778 -51.553181 -16.574265 -143.31528 -15.513183 -142.77205
-4.2868366 -51.54007 -22.076862 -177.41637 -15.558137 -142.58458 -16.725157 -147.4128
-16.577936 -143.32246 -15.557239 -142.58107 -17.072895 126.41417 -4.3007956 -51.558701
-15.513463 -142.77773 -16.720917 -147.41125 -4.3012471 -51.571846 -21.39683 -174.43152
