#	Hz	S	MA	R	50
10000000	0.0548878652576632	-4.42221538779731	0.943166828270733	-11.3791654856069	0.0107151875436391	78.5353519816538	0.00172717826332054	76.3330806968975
			0.943166828270733	-11.3791654856069	0.0548878652576632	-4.42221538779737	0.00172717826332058	76.3330806968945	0.0107151875436391	78.5353519816533
			0.0107151875436391	78.5353519816537	0.00172717826332056	76.3330806968942	0.0548878665104194	-4.42221553855099	0.943166829537068	-11.3791654856538
			0.00172717826332052	76.3330806968976	0.0107151875436391	78.5353519816534	0.943166829537068	-11.3791654856538	0.0548878665104194	-4.422215538551
20000000	0.0615217238474115	-22.2509519581142	0.932756770951073	-21.9660373941487	0.0208454656970292	68.1100794595963	0.00355517761832623	60.3686133464204
			0.932756770951073	-21.9660373941487	0.0615217238474118	-22.2509519581142	0.00355517761832624	60.3686133464183	0.0208454656970292	68.1100794595961
			0.0208454656970292	68.1100794595963	0.00355517761832625	60.3686133464183	0.0615217263180927	-22.2509519487376	0.932756773468766	-21.9660373966398
			0.00355517761832622	60.3686133464203	0.0208454656970292	68.1100794595961	0.932756773468766	-21.9660373966398	0.0615217263180927	-22.2509519487377
30000000	0.0660382127206432	-40.0540408126169	0.924205962802916	-32.4241100188722	0.030101067729132	57.8444912606572	0.00534716079313258	43.9660064154395
			0.924205962802916	-32.4241100188722	0.0660382127206429	-40.0540408126169	0.00534716079313256	43.9660064154398	0.030101067729132	57.844491260657
			0.030101067729132	57.8444912606573	0.00534716079313256	43.9660064154398	0.0660382162758857	-40.0540404317868	0.924205966540219	-32.4241100265952
			0.00534716079313258	43.9660064154393	0.030101067729132	57.844491260657	0.92420596654022	-32.4241100265952	0.0660382162758856	-40.054040431787
40000000	0.069557270859352	-57.210868162954	0.916421842954681	-42.805829121685	0.0381897522055199	47.7135459087014	0.00701797348592165	27.5159276992079
			0.916421842954681	-42.805829121685	0.0695572708593516	-57.2108681629541	0.0070179734859217	27.5159276992069	0.0381897522055199	47.7135459087014
			0.0381897522055199	47.7135459087014	0.00701797348592169	27.5159276992069	0.0695572752918226	-57.2108673036457	0.916421847864537	-42.8058291370626
			0.00701797348592165	27.5159276992079	0.0381897522055199	47.7135459087014	0.916421847864537	-42.8058291370626	0.0695572752918229	-57.2108673036457
50000000	0.0722584323538399	-73.5239518896144	0.909054728810756	-53.1268357244743	0.0448665590138148	37.7263446969054	0.0085037160394908	11.1932553844941
			0.909054728810756	-53.1268357244743	0.0722584323538397	-73.5239518896144	0.00850371603949083	11.1932553844934	0.0448665590138148	37.7263446969053
			0.0448665590138148	37.7263446969054	0.00850371603949084	11.1932553844933	0.072258437421944	-73.5239505313598	0.90905473483553	-53.1268357491826
			0.0085037160394908	11.1932553844941	0.0448665590138148	37.7263446969053	0.90905473483553	-53.1268357491826	0.0722584374219444	-73.5239505313595
60000000	0.074040149972075	-88.9446190607501	0.902002708885577	-63.3936912316982	0.0499499980444855	27.9003153354432	0.00975824487113036	-4.88631500073443
			0.902002708885576	-63.3936912316982	0.0740401499720751	-88.9446190607502	0.00975824487113041	-4.88631500073474	0.0499499980444855	27.9003153354432
			0.0499499980444855	27.9003153354432	0.00975824487113041	-4.88631500073476	0.0740401554318061	-88.9446172412855	0.902002715963321	-63.393691266463
			0.00975824487113037	-4.88631500073449	0.0499499980444855	27.9003153354432	0.902002715963321	-63.393691266463	0.0740401554318063	-88.9446172412855
70000000	0.0747205217399253	-103.497259802493	0.895269105158126	-73.6110641071924	0.0533270344270924	18.2548911883091	0.0107523291832529	-20.6268319791489
			0.895269105158126	-73.6110641071924	0.0747205217399253	-103.497259802493	0.0107523291832529	-20.6268319791495	0.0533270344270925	18.254891188309
			0.0533270344270924	18.2548911883091	0.0107523291832529	-20.6268319791496	0.0747205273640709	-103.497257590757	0.895269113229115	-73.6110641517437
			0.0107523291832529	-20.6268319791489	0.0533270344270924	18.254891188309	0.895269113229115	-73.6110641517437	0.0747205273640711	-103.497257590757
80000000	0.074121474127095	-117.236986628541	0.888899077665982	-83.7841437506079	0.0549505013172208	8.81108878438242	0.0114730152095578	-35.9358495582023
			0.888899077665982	-83.7841437506079	0.0741214741270943	-117.236986628541	0.0114730152095578	-35.9358495582025	0.0549505013172208	8.81108878438248
			0.0549505013172208	8.81108878438242	0.0114730152095578	-35.9358495582026	0.0741214797138413	-117.236984105776	0.888899086678471	-83.7841438037751
			0.0114730152095578	-35.9358495582023	0.0549505013172208	8.81108878438248	0.888899086678471	-83.7841438037751	0.0741214797138419	-117.236984105776
90000000	0.072106536710057	-130.221561988938	0.882944846116689	-93.9193273266929	0.0548320057048576	-0.405084052244888	0.0119229084082301	-50.7145950152968
			0.882944846116689	-93.9193273266929	0.0721065367100567	-130.221561988939	0.01192290840823	-50.7145950152963	0.0548320057048576	-0.405084052244873
			0.0548320057048576	-0.405084052244887	0.01192290840823	-50.7145950152962	0.0721065420849676	-130.221559238567	0.882944856031196	-93.9193273866083
			0.0119229084082301	-50.7145950152968	0.0548320057048576	-0.405084052244873	0.882944856031196	-93.9193273866083	0.0721065420849678	-130.221559238568
100000000	0.0685971117115676	-142.49082162651	0.877445414993341	-104.024128260332	0.0530333645861342	-9.35487835265431	0.0121195824637256	-64.8506762996253
			0.877445414993341	-104.024128260332	0.0685971117115677	-142.490821626511	0.0121195824637255	-64.8506762996253	0.0530333645861342	-9.35487835265431
			0.0530333645861342	-9.35487835265431	0.0121195824637256	-64.8506762996253	0.0685971167261937	-142.490818730888	0.87744542578506	-104.024128324708
			0.0121195824637256	-64.8506762996253	0.0530333645861342	-9.35487835265431	0.877445425785059	-104.024128324708	0.0685971167261943	-142.490818730888
110000000	0.0635791169313299	-154.046709453523	0.87241544213578	-114.106710277714	0.0496592098401129	-17.971996433016	0.0120953638571006	-78.2135839110371
			0.872415442135779	-114.106710277714	0.0635791169313297	-154.046709453522	0.0120953638571007	-78.2135839110374	0.0496592098401129	-17.971996433016
			0.0496592098401129	-17.971996433016	0.0120953638571007	-78.2135839110375	0.0635791214604175	-154.046706495738	0.872415453795046	-114.106710344147
			0.0120953638571006	-78.2135839110371	0.0496592098401129	-17.971996433016	0.872415453795046	-114.106710344147	0.0635791214604182	-154.046706495738
120000000	0.0571064977710329	-164.823806149936	0.867840582002862	-124.17525710005	0.0448528715563351	-26.1334013216218	0.0118975312721964	-90.6562722363737
			0.867840582002862	-124.17525710005	0.0571064977710328	-164.823806149936	0.0118975312721963	-90.6562722363736	0.0448528715563351	-26.1334013216218
			0.0448528715563351	-26.1334013216218	0.0118975312721964	-90.6562722363736	0.0571065017091477	-164.823803220147	0.86784059453382	-124.175257166324
			0.0118975312721964	-90.6562722363737	0.0448528715563351	-26.1334013216218	0.86784059453382	-124.175257166324	0.0571065017091477	-164.823803220147
130000000	0.0493062217713755	-174.62935793771	0.86367772204371	-134.237303453732	0.0387977033925986	-33.5956509173614	0.0115884988793107	-102.029831807491
			0.86367772204371	-134.237303453732	0.0493062217713755	-174.62935793771	0.0115884988793108	-102.029831807491	0.0387977033925986	-33.5956509173615
			0.0387977033925986	-33.5956509173614	0.0115884988793108	-102.029831807491	0.0493062250289008	-174.629355145647	0.863677735461458	-134.237303518076
			0.0115884988793107	-102.029831807491	0.0387977033925986	-33.5956509173615	0.863677735461457	-134.237303518076	0.0493062250289008	-174.629355145647
140000000	0.0403918046125293	177.005703278984	0.859859074387287	-144.299114852233	0.0317286815131019	-39.8349680336333	0.0112447236650343	-112.221715157619
			0.859859074387287	-144.299114852233	0.0403918046125296	177.005703278985	0.0112447236650344	-112.221715157619	0.0317286815131019	-39.834968033633
			0.0317286815131019	-39.8349680336333	0.0112447236650344	-112.221715157619	0.0403918071098454	177.005705780008	0.85985908871391	-144.29911491351
			0.0112447236650343	-112.221715157619	0.0317286815131019	-39.834968033633	0.85985908871391	-144.29911491351	0.0403918071098454	177.005705780008
150000000	0.030708475659392	171.268858477025	0.856299316548492	-154.365187757263	0.0239732083052434	-43.566341476273	0.0109519693618982	-121.224781306521
			0.856299316548492	-154.365187757263	0.030708475659392	171.268858477025	0.010951969361898	-121.22478130652	0.0239732083052435	-43.5663414762728
			0.0239732083052434	-43.566341476273	0.0109519693618981	-121.22478130652	0.0307084773153873	171.268860445665	0.856299331808479	-154.365187815075
			0.0109519693618982	-121.224781306521	0.0239732083052434	-43.5663414762728	0.856299331808479	-154.365187815075	0.0307084773153875	171.268860445666
160000000	0.0209207116009385	171.66968409925	0.852904945706633	-164.437933271169	0.0161189860719295	-40.9494560540233	0.0107941231034232	-129.221572330091
			0.852904945706633	-164.437933271169	0.0209207116009385	171.669684099249	0.0107941231034231	-129.221572330091	0.0161189860719295	-40.9494560540233
			0.0161189860719296	-40.9494560540233	0.0107941231034231	-129.221572330091	0.0209207123064542	171.669685197529	0.852904961922222	-164.43793332586
			0.0107941231034232	-129.221572330091	0.0161189860719295	-40.9494560540233	0.852904961922222	-164.43793332586	0.0209207123064544	171.669685197529
170000000	0.013009029780545	-170.028803028085	0.8495847892303	-174.517594724156	0.00992838110107945	-18.8615495587506	0.0108353018028584	-136.624227166285
			0.849584789230301	-174.517594724156	0.0130090297805448	-170.028803028084	0.0108353018028584	-136.624227166285	0.00992838110107946	-18.8615495587508
			0.0099283811010795	-18.861549558751	0.0108353018028584	-136.624227166285	0.0130090294261743	-170.028801819639	0.849584806417332	-174.517594776721
			0.0108353018028584	-136.624227166285	0.00992838110107953	-18.8615495587511	0.849584806417332	-174.517594776721	0.0130090294261743	-170.028801819641
180000000	0.0128563714768448	-127.450289045693	0.846260334525685	175.397575111753	0.0104299794961978	26.2610459206436	0.0111015789703054	-143.99621038713
			0.846260334525685	175.397575111753	0.0128563714768446	-127.450289045692	0.0111015789703054	-143.99621038713	0.0104299794961979	26.261045920643
			0.0104299794961978	26.2610459206436	0.0111015789703054	-143.99621038713	0.012856370997813	-127.450282236628	0.84626035269051	175.397575059841
			0.0111015789703055	-143.99621038713	0.0104299794961979	26.261045920643	0.84626035269051	175.397575059841	0.0128563709978131	-127.450282236628
190000000	0.0205588056234207	-108.136459053246	0.842874385710459	165.310888857529	0.0169389321540104	44.7649515734263	0.0115734841678945	-151.867676537425
			0.842874385710459	165.310888857529	0.0205588056234209	-108.136459053245	0.0115734841678945	-151.867676537425	0.0169389321540104	44.7649515734264
			0.0169389321540104	44.7649515734265	0.0115734841678945	-151.867676537425	0.0205588060787755	-108.136451557122	0.84287440484833	165.310888804557
			0.0115734841678945	-151.867676537425	0.0169389321540103	44.7649515734266	0.842874404848331	165.310888804557	0.0205588060787753	-108.136451557121
200000000	0.0301165436958532	-106.841211861721	0.839396683983772	155.22660659759	0.0246640910029659	46.2708764527556	0.0121947032065796	-160.57102129775
			0.839396683983772	155.22660659759	0.030116543695853	-106.841211861721	0.0121947032065795	-160.57102129775	0.0246640910029659	46.2708764527557
			0.0246640910029659	46.2708764527557	0.0121947032065795	-160.57102129775	0.0301165450038375	-106.841205144045	0.839396704078914	155.226606541863
			0.0121947032065796	-160.57102129775	0.0246640910029659	46.2708764527558	0.839396704078914	155.226606541863	0.0301165450038374	-106.841205144045
210000000	0.0394556677662278	-111.474326608945	0.835825601105974	145.149217820513	0.0320990743062252	42.2495514014088	0.0128905125782168	-170.199989204891
			0.835825601105974	145.149217820513	0.0394556677662278	-111.474326608945	0.0128905125782167	-170.199989204891	0.0320990743062252	42.2495514014089
			0.0320990743062252	42.2495514014087	0.0128905125782167	-170.199989204891	0.0394556697894581	-111.474320488594	0.835825622133303	145.1492177606
			0.0128905125782167	-170.199989204891	0.0320990743062252	42.2495514014089	0.835825622133303	145.1492177606	0.0394556697894581	-111.474320488595
220000000	0.0478639177269743	-118.390778537403	0.832185740531695	135.082734849538	0.0387087809172229	36.0443335931338	0.0135853160322611	179.329042409549
			0.832185740531695	135.082734849538	0.0478639177269743	-118.390778537403	0.0135853160322611	179.329042409549	0.0387087809172229	36.0443335931335
			0.0387087809172229	36.0443335931338	0.0135853160322611	179.329042409549	0.0478639203484767	-118.390772852122	0.832185762459872	135.082734784483
			0.0135853160322611	179.329042409549	0.0387087809172229	36.0443335931335	0.832185762459872	135.082734784483	0.0478639203484768	-118.390772852122
230000000	0.0549512360982674	-126.328285715322	0.828522048282453	125.030103338669	0.0441946146162196	28.829085020361	0.0142138588449135	168.191817606326
			0.828522048282453	125.030103338669	0.0549512360982676	-126.328285715322	0.0142138588449135	168.191817606326	0.0441946146162196	28.829085020361
			0.0441946146162196	28.829085020361	0.0142138588449135	168.191817606326	0.0549512392037502	-126.328280375684	0.828522071077764	125.030103268113
			0.0142138588449135	168.191817606326	0.0441946146162196	28.829085020361	0.828522071077764	125.030103268113	0.0549512392037501	-126.328280375684
240000000	0.0604564309380364	-134.747736041268	0.824891613562738	114.992806947674	0.0483611086533545	21.1164999964583	0.014726441513636	156.594341132172
			0.824891613562739	114.992806947674	0.0604564309380361	-134.747736041268	0.014726441513636	156.594341132172	0.0483611086533545	21.1164999964582
			0.0483611086533546	21.1164999964583	0.014726441513636	156.594341132172	0.060456434408894	-134.747731002005	0.824891637193174	114.9928068719
			0.014726441513636	156.594341132172	0.0483611086533545	21.1164999964582	0.824891637193174	114.9928068719	0.0604564344088938	-134.747731002005
250000000	0.0642012101660706	-143.375948193527	0.821354582786915	104.970702731979	0.0510833893222047	13.1732203974371	0.015090446913602	144.741151441694
			0.821354582786915	104.970702731979	0.0642012101660707	-143.375948193528	0.0150904469136021	144.741151441694	0.0510833893222047	13.1732203974371
			0.0510833893222047	13.1732203974371	0.0150904469136021	144.741151441693	0.0642012138779993	-143.375943436011	0.821354607225877	104.970702651862
			0.015090446913602	144.741151441694	0.0510833893222047	13.1732203974371	0.821354607225877	104.970702651862	0.0642012138779995	-143.375943436012
260000000	0.0660759792342367	-152.049688940474	0.817965517576862	94.9620838227256	0.0522955295563987	5.16258286177916	0.0152901388898789	132.824019338595
			0.817965517576863	94.9620838227256	0.0660759792342368	-152.049688940473	0.015290138889879	132.824019338595	0.0522955295563987	5.16258286177914
			0.0522955295563987	5.16258286177916	0.015290138889879	132.824019338595	0.0660759830580828	-152.049684464421	0.817965542805992	94.9620837396048
			0.0152901388898789	132.824019338595	0.0522955295563987	5.16258286177913	0.817965542805991	94.9620837396048	0.0660759830580827	-152.049684464421
270000000	0.0660342667169156	-160.649688009853	0.81476621182392	84.9639361079066	0.0519840763221112	-2.79404852610163	0.015325868887475	121.020614987918
			0.81476621182392	84.9639361079066	0.0660342667169152	-160.649688009853	0.015325868887475	121.020614987918	0.0519840763221112	-2.79404852610161
			0.0519840763221112	-2.79404852610163	0.015325868887475	121.020614987918	0.0660342705203035	-160.649683830336	0.814766237834716	84.9639360234004
			0.015325868887475	121.020614987918	0.0519840763221112	-2.79404852610161	0.814766237834716	84.9639360234004	0.066034270520303	-160.649683830336
280000000	0.0640904488596967	-169.063723339203	0.811780599928661	74.9723391046409	0.0501836128657335	-10.5818060209935	0.01521320111077	109.495788390422
			0.811780599928661	74.9723391046409	0.0640904488596969	-169.063723339204	0.01521320111077	109.495788390422	0.0501836128657335	-10.5818060209935
			0.0501836128657335	-10.5818060209935	0.01521320111077	109.495788390422	0.0640904525086752	-169.063719487244	0.811780626722768	74.9723390204275
			0.0152132011107699	109.495788390422	0.0501836128657334	-10.5818060209935	0.811780626722768	74.9723390204275	0.0640904525086751	-169.063719487244
290000000	0.0603198705636888	-177.155185648116	0.809012057568063	64.982955661925	0.0469743798269379	-18.0605881741266	0.0149820282845289	98.4003341782343
			0.809012057568063	64.982955661925	0.0603198705636887	-177.155185648116	0.0149820282845288	98.4003341782346	0.046974379826938	-18.0605881741265
			0.0469743798269379	-18.0605881741266	0.0149820282845288	98.4003341782346	0.0603198739238594	-177.155182174636	0.809012085156207	64.9829555795207
			0.0149820282845289	98.4003341782343	0.046974379826938	-18.0605881741265	0.809012085156207	64.9829555795207	0.0603198739238589	-177.155182174635
300000000	0.054862175406403	175.279506826539	0.806443164407929	54.991555489247	0.0424831620391067	-25.0204542809511	0.01467535991256	87.8630012069433
			0.806443164407929	54.991555489247	0.0548621754064028	175.279506826539	0.01467535991256	87.8630012069432	0.0424831620391067	-25.0204542809512
			0.0424831620391067	-25.0204542809511	0.01467535991256	87.8630012069432	0.0548621783428303	175.2795098425	0.806443192807708	54.991555409809
			0.01467535991256	87.8630012069433	0.0424831620391066	-25.0204542809512	0.806443192807708	54.991555409809	0.0548621783428301	175.2795098425
310000000	0.0479309162903637	168.590914785514	0.804037843456499	44.9945192641652	0.0368903061009883	-31.0963452664786	0.0143470495677746	77.9723504888529
			0.804037843456499	44.9945192641652	0.0479309162903635	168.590914785513	0.0143470495677748	77.9723504888526	0.0368903061009882	-31.0963452664786
			0.0368903061009883	-31.0963452664786	0.0143470495677748	77.9723504888526	0.047930918665038	168.590917222458	0.804037872689297	44.9945191883419
			0.0143470495677746	77.972350488853	0.0368903061009883	-31.0963452664786	0.804037872689297	44.9945191883419	0.047930918665038	168.590917222458
320000000	0.0398392995513521	163.459578272301	0.801745656435472	34.9892714113802	0.0304512268409554	-35.5710050386334	0.0140573857716493	68.7482862735509
			0.801745656435473	34.9892714113801	0.0398392995513518	163.459578272301	0.0140573857716492	68.748286273551	0.0304512268409554	-35.5710050386333
			0.0304512268409554	-35.5710050386334	0.0140573857716492	68.7482862735511	0.0398393012154727	163.459579946157	0.801745686522872	34.9892713392291
			0.0140573857716493	68.7482862735509	0.0304512268409554	-35.5710050386333	0.801745686522872	34.9892713392291	0.0398393012154727	163.459579946158
330000000	0.0310767986245598	161.376796636093	0.799507864447731	24.974591927415	0.0235618587698871	-36.852471412882	0.013865594449176	60.1112057112276
			0.799507864447732	24.974591927415	0.0310767986245598	161.376796636094	0.0138655944491759	60.111205711228	0.0235618587698871	-36.852471412882
			0.0235618587698871	-36.852471412882	0.0138655944491759	60.111205711228	0.0310767994006227	161.376797306098	0.799507895407894	24.9745918583983
			0.013865594449176	60.1112057112275	0.023561858769887	-36.852471412882	0.799507895407894	24.9745918583983	0.031076799400623	161.376797306098
340000000	0.0225722730342717	165.975910709647	0.797264641057908	14.9507643760595	0.0169843653955086	-31.0311334798334	0.0138194943292477	51.8679986449409
			0.797264641057908	14.9507643760595	0.0225722730342717	165.975910709646	0.0138194943292476	51.8679986449411	0.0169843653955085	-31.0311334798335
