#	Hz	S	MA	R	50
10000000	0.0793799772720915	-9.83476088346661	0.916990272167831	-17.0739545355759	0.0155843083681708	73.0803885390413	0.00292808011998209	69.2301685992414
			0.916990272167831	-17.0739545355759	0.0793799772720917	-9.83476088346663	0.0029280801199821	69.2301685992413	0.0155843083681707	73.0803885390415
			0.0155843083681708	73.0803885390413	0.00292808011998211	69.2301685992412	0.0793799791365207	-9.83476104125862	0.91699027406201	-17.0739545362646
			0.0029280801199821	69.2301685992414	0.0155843083681707	73.0803885390415	0.91699027406201	-17.0739545362646	0.0793799791365207	-9.83476104125881
20000000	0.086461219870254	-32.580516026636	0.901776962322497	-32.9947928968509	0.0294813806633897	57.5481499961444	0.00595949319981848	45.0297492959686
			0.901776962322497	-32.9947928968509	0.086461219870254	-32.580516026636	0.00595949319981851	45.0297492959676	0.0294813806633897	57.5481499961444
			0.0294813806633897	57.5481499961444	0.00595949319981851	45.0297492959675	0.0864612234559115	-32.5805160473384	0.901776966058303	-32.9947929046815
			0.00595949319981847	45.0297492959687	0.0294813806633897	57.5481499961444	0.901776966058303	-32.9947929046816	0.0864612234559114	-32.5805160473386
30000000	0.0888901442905765	-55.0946989170294	0.888818265917153	-48.7126602858698	0.04072830032434	42.3558728726121	0.0087169443740994	20.6460718113059
			0.888818265917153	-48.7126602858698	0.0888901442905766	-55.0946989170294	0.00871694437409939	20.6460718113065	0.04072830032434	42.3558728726119
			0.04072830032434	42.3558728726121	0.0087169443740994	20.6460718113065	0.0888901492441328	-55.0946986063472	0.888818271385091	-48.7126603070685
			0.00871694437409939	20.646071811306	0.04072830032434	42.3558728726119	0.888818271385091	-48.7126603070685	0.0888901492441324	-55.0946986063472
40000000	0.0882408587751619	-76.7372991469345	0.876759639167148	-64.2867537597055	0.0485633970059896	27.5517657589076	0.0109764574013855	-3.3291299473401
			0.876759639167148	-64.2867537597055	0.0882408587751619	-76.7372991469343	0.0109764574013855	-3.32912994734042	0.0485633970059896	27.5517657589075
			0.0485633970059896	27.5517657589076	0.0109764574013855	-3.32912994734031	0.088240864605304	-76.7372984156434	0.876759646222096	-64.2867537977729
			0.0109764574013855	-3.32912994734007	0.0485633970059896	27.5517657589075	0.876759646222096	-64.2867537977729	0.0882408646053038	-76.7372984156435
50000000	0.0848164974736344	-97.2642788753337	0.865417995362834	-79.734893782673	0.0525731798144616	13.2276499280877	0.0126138005953978	-26.5489433128128
			0.865417995362834	-79.734893782673	0.084816497473634	-97.2642788753334	0.0126138005953979	-26.5489433128131	0.0525731798144616	13.2276499280877
			0.0525731798144616	13.2276499280877	0.0126138005953979	-26.5489433128131	0.084816503645806	-97.2642777230957	0.865418003857468	-79.7348938375494
			0.0126138005953978	-26.5489433128127	0.0525731798144616	13.2276499280877	0.865418003857468	-79.7348938375494	0.0848165036458053	-97.2642777230951
60000000	0.0786287760128151	-116.546017956829	0.854930279602721	-95.0742313707055	0.0526945784561322	-0.502550632667615	0.0135973447063575	-48.7124906454344
			0.85493027960272	-95.0742313707055	0.0786287760128151	-116.54601795683	0.0135973447063575	-48.7124906454345	0.0526945784561322	-0.502550632667628
			0.0526945784561322	-0.502550632667617	0.0135973447063575	-48.7124906454344	0.0786287820223021	-116.546016448142	0.854930289418267	-95.0742314391347
			0.0135973447063575	-48.7124906454344	0.0526945784561322	-0.502550632667629	0.854930289418267	-95.0742314391347	0.0786287820223021	-116.546016448143
70000000	0.0697091622817651	-134.441541074954	0.845460447091915	-110.328164974038	0.049155829284826	-13.4583103591529	0.0139799337350892	-69.5032515111784
			0.845460447091915	-110.328164974038	0.0697091622817654	-134.441541074954	0.0139799337350893	-69.5032515111787	0.0491558292848259	-13.4583103591529
			0.049155829284826	-13.4583103591529	0.0139799337350893	-69.5032515111787	0.0697091676950351	-134.44153932111	0.84546045815717	-110.328165050778
			0.0139799337350892	-69.5032515111783	0.049155829284826	-13.4583103591529	0.84546045815717	-110.328165050778	0.0697091676950349	-134.44153932111
80000000	0.0582548788807236	-150.626339384329	0.837073586198797	-125.524477275786	0.042412244922707	-25.2534728251124	0.0138910692894483	-88.570185852544
			0.837073586198797	-125.524477275786	0.0582548788807237	-150.626339384329	0.0138910692894484	-88.5701858525443	0.042412244922707	-25.2534728251125
			0.042412244922707	-25.2534728251124	0.0138910692894484	-88.5701858525442	0.0582548833499447	-150.626337543031	0.837073598494286	-125.524477355194
			0.0138910692894483	-88.570185852544	0.042412244922707	-25.2534728251125	0.837073598494286	-125.524477355194	0.0582548833499444	-150.626337543031
90000000	0.0447370981311459	-164.179063723939	0.829695688056569	-140.690745749103	0.0331303155603946	-34.8731540643275	0.0135298462080947	-105.577811400773
			0.829695688056569	-140.690745749103	0.0447370981311464	-164.179063723939	0.0135298462080946	-105.577811400773	0.0331303155603946	-34.8731540643275
			0.0331303155603946	-34.8731540643275	0.0135298462080946	-105.577811400773	0.0447371013892412	-164.179062030012	0.829695701605273	-140.690745826636
			0.0135298462080947	-105.577811400773	0.0331303155603946	-34.8731540643275	0.829695701605272	-140.690745826636	0.0447371013892413	-164.179062030012
100000000	0.0301241364862544	-172.071315428375	0.82312697167267	-155.849484473837	0.0223327876431018	-38.9974331298382	0.0131484623268273	-120.391431521513
			0.82312697167267	-155.849484473837	0.0301241364862541	-172.071315428376	0.0131484623268274	-120.391431521513	0.0223327876431018	-38.9974331298383
			0.0223327876431018	-38.9974331298382	0.0131484623268274	-120.391431521513	0.030124138321948	-172.071314263389	0.823126986521383	-155.849484547102
			0.0131484623268274	-120.391431521513	0.0223327876431018	-38.9974331298383	0.823126986521383	-155.849484547102	0.0301241383219478	-172.071314263389
110000000	0.0171194323842106	-161.797446476988	0.817090705238598	-171.014419818473	0.0125226433655481	-23.3088814130498	0.0130037249081802	-133.394780883179
			0.817090705238597	-171.014419818473	0.0171194323842108	-161.797446476989	0.0130037249081803	-133.394780883179	0.0125226433655481	-23.3088814130498
			0.0125226433655481	-23.3088814130498	0.0130037249081803	-133.394780883179	0.0171194326383313	-161.797445689522	0.817090721435327	-171.014419887605
			0.0130037249081802	-133.394780883179	0.0125226433655481	-23.3088814130496	0.817090721435327	-171.014419887605	0.0171194326383311	-161.797445689522
120000000	0.0156556508828462	-116.35550896413	0.811301930394997	173.811091304474	0.0125227359384836	27.3581151754579	0.0132663160747817	-145.643673523388
			0.811301930394997	173.811091304474	0.0156556508828462	-116.35550896413	0.0132663160747816	-145.643673523388	0.0125227359384836	27.3581151754578
			0.0125227359384836	27.3581151754579	0.0132663160747817	-145.643673523388	0.0156556508246247	-116.355503126613	0.811301947968434	173.811091237157
			0.0132663160747817	-145.643673523388	0.0125227359384836	27.3581151754578	0.811301947968434	173.811091237157	0.0156556508246251	-116.355503126615
130000000	0.0269183857203814	-100.295772382502	0.805537027944975	158.63295213561	0.0221467758804703	42.921020570423	0.0139394315709918	-158.434362428283
			0.805537027944975	158.63295213561	0.0269183857203813	-100.295772382503	0.0139394315709918	-158.434362428283	0.0221467758804702	42.9210205704231
			0.0221467758804703	42.921020570423	0.0139394315709918	-158.434362428283	0.0269183870321569	-100.295766151704	0.805537046891619	158.632952066559
			0.0139394315709918	-158.434362428283	0.0221467758804703	42.9210205704231	0.805537046891619	158.632952066559	0.0269183870321569	-100.295766151704
140000000	0.0396193793216959	-105.144211154487	0.799682804009952	143.462773511358	0.0325138022705469	39.0148255813548	0.0148689391556191	-172.580443581949
			0.799682804009952	143.462773511358	0.0396193793216956	-105.144211154487	0.0148689391556192	-172.580443581949	0.0325138022705469	39.0148255813548
			0.0325138022705469	39.0148255813548	0.0148689391556192	-172.580443581949	0.0396193818332794	-105.144205612879	0.799682824292379	143.462773437035
			0.0148689391556191	-172.580443581949	0.0325138022705469	39.0148255813548	0.799682824292379	143.462773437035	0.0396193818332791	-105.144205612879
150000000	0.0503512077722707	-115.554915996243	0.793749403169136	128.313026300556	0.0411462797329524	29.9270134179121	0.0158353120028253	171.829939760801
			0.793749403169137	128.313026300556	0.0503512077722707	-115.554915996243	0.0158353120028252	171.829939760802	0.0411462797329524	29.9270134179121
			0.0411462797329524	29.9270134179121	0.0158353120028252	171.829939760802	0.0503512111931752	-115.554910945969	0.793749424725373	128.31302621859
			0.0158353120028253	171.829939760801	0.0411462797329524	29.9270134179121	0.793749424725373	128.31302621859	0.0503512111931754	-115.554910945969
160000000	0.0579407507218499	-127.739563223081	0.787845075222832	113.192529150422	0.0471187983532142	19.093146894252	0.016643087051966	155.172055287491
			0.787845075222832	113.192529150422	0.05794075072185	-127.739563223081	0.016643087051966	155.172055287491	0.0471187983532142	19.0931468942521
			0.0471187983532143	19.0931468942521	0.016643087051966	155.172055287491	0.0579407547451547	-127.739558564009	0.78784509798308	113.192529060329
			0.016643087051966	155.172055287491	0.0471187983532142	19.0931468942521	0.78784509798308	113.192529060329	0.0579407547451548	-127.739558564009
170000000	0.0618076147284021	-140.441337210976	0.782125281010759	98.1036478328226	0.0499788970172807	7.6959185334564	0.0171661324064755	137.977293316214
			0.782125281010759	98.1036478328226	0.0618076147284013	-140.441337210975	0.0171661324064753	137.977293316215	0.0499788970172807	7.69591853345645
			0.0499788970172807	7.69591853345639	0.0171661324064753	137.977293316215	0.0618076190287482	-140.441332921565	0.782125304915555	98.1036477360955
			0.0171661324064755	137.977293316214	0.0499788970172807	7.69591853345645	0.782125304915555	98.1036477360955	0.061807619028748	-140.441332921565
180000000	0.0617262180040012	-153.050987236723	0.776735574175257	83.0417939022604	0.049587036967508	-3.6635503137893	0.0173592677259582	120.775072374687
			0.776735574175257	83.0417939022603	0.0617262180040009	-153.050987236723	0.0173592677259582	120.775072374687	0.049587036967508	-3.66355031378929
			0.049587036967508	-3.6635503137893	0.0173592677259582	120.775072374687	0.0617262222468516	-153.050983346817	0.776735599189321	83.0417938018527
			0.0173592677259582	120.775072374687	0.049587036967508	-3.66355031378929	0.77673559918932	83.0417938018527	0.0617262222468515	-153.050983346817
190000000	0.0577760773217062	-165.081532938281	0.771765312753389	67.9969964954276	0.0460668163303412	-14.4885930962163	0.01725479107324	104.037505917995
			0.771765312753389	67.9969964954276	0.0577760773217066	-165.081532938281	0.01725479107324	104.037505917995	0.0460668163303412	-14.4885930962164
			0.0460668163303412	-14.4885930962163	0.01725479107324	104.037505917995	0.0577760811746857	-165.081529526865	0.771765338871409	67.9969963948297
			0.01725479107324	104.037505917995	0.0460668163303412	-14.4885930962164	0.771765338871409	67.9969963948297	0.0577760811746857	-165.081529526865
200000000	0.0503429597478657	-175.853333411256	0.767222104864506	52.9568370555788	0.0397879574705842	-24.074467940844	0.0169526821451275	88.1445297332217
			0.767222104864505	52.9568370555788	0.0503429597478657	-175.853333411256	0.0169526821451275	88.1445297332217	0.0397879574705842	-24.0744679408441
			0.0397879574705842	-24.074467940844	0.0169526821451275	88.1445297332217	0.0503429628876545	-175.853330624458	0.767222132107841	52.9568369577737
			0.0169526821451275	88.1445297332217	0.0397879574705842	-24.0744679408441	0.767222132107841	52.9568369577737	0.0503429628876545	-175.853330624459
210000000	0.0401842494056984	176.040621532592	0.763030184379962	37.9098858303493	0.031408330280777	-30.9337663930103	0.01660336796454	73.3148250671004
			0.763030184379962	37.9098858303493	0.0401842494056982	176.040621532592	0.0166033679645399	73.3148250671007	0.0314083302807769	-30.9337663930102
			0.031408330280777	-30.9337663930103	0.0166033679645399	73.3148250671007	0.0401842515130349	176.040623449189	0.763030212785705	37.9098857369521
			0.01660336796454	73.3148250671005	0.0314083302807769	-30.9337663930102	0.763030212785704	37.9098857369521	0.0401842515130352	176.040623449189
220000000	0.0287216600622606	174.342171899432	0.759051276746027	22.848786497346	0.0221270933549652	-31.0084659427704	0.0163757019994566	59.4957067653335
			0.759051276746027	22.848786497346	0.0287216600622604	174.342171899432	0.0163757019994566	59.4957067653333	0.0221270933549653	-31.0084659427701
			0.0221270933549652	-31.0084659427704	0.0163757019994566	59.4957067653333	0.0287216607979576	174.342172699917	0.759051306351718	22.8487864081607
			0.0163757019994566	59.4957067653335	0.0221270933549653	-31.0084659427701	0.759051306351719	22.8487864081607	0.0287216607979575	174.342172699917
230000000	0.0193941792666726	-170.53610025805	0.755122596289533	7.7722063452076	0.0148996711557425	-12.9933058164545	0.0164063359559133	46.2910384062245
			0.755122596289532	7.77220634520761	0.0193941792666727	-170.53610025805	0.0164063359559133	46.2910384062245	0.0148996711557426	-12.9933058164543
			0.0148996711557426	-12.9933058164546	0.0164063359559133	46.2910384062246	0.0193941784257417	-170.536098865671	0.755122627117983	7.7722062583239
			0.0164063359559133	46.2910384062245	0.0148996711557426	-12.9933058164544	0.755122627117983	7.7722062583239	0.0193941784257414	-170.536098865671
240000000	0.0196737032326997	-137.51556319864	0.751102244253959	-7.31492925192051	0.0158379915594944	21.3485984223869	0.0167463198224108	33.0642809993767
			0.751102244253959	-7.31492925192051	0.0196737032326997	-137.51556319864	0.0167463198224106	33.0642809993769	0.0158379915594944	21.3485984223869
			0.0158379915594944	21.348598422387	0.0167463198224106	33.0642809993769	0.0196737023161557	-137.515555985069	0.751102276302679	-7.31492933952142
			0.0167463198224107	33.0642809993767	0.0158379915594945	21.348598422387	0.751102276302679	-7.31492933952142	0.0196737023161557	-137.51555598507
250000000	0.0291561795467864	-123.36807888628	0.746908745919548	-22.4030653467794	0.0237022610559247	34.5523672493433	0.0173397154027442	19.2233025095919
			0.746908745919548	-22.4030653467794	0.0291561795467865	-123.36807888628	0.0173397154027442	19.2233025095917	0.0237022610559247	34.5523672493433
			0.0237022610559247	34.5523672493433	0.0173397154027442	19.2233025095917	0.029156180100434	-123.368070819639	0.74690877915814	-22.4030654382896
			0.0173397154027442	19.223302509592	0.0237022610559247	34.5523672493433	0.74690877915814	-22.4030654382896	0.029156180100434	-123.368070819639
260000000	0.0404215633680411	-125.077773372963	0.742541882787648	-37.4810439735277	0.032603933923182	32.704942130073	0.018052184691768	4.47035423265747
			0.742541882787648	-37.4810439735277	0.0404215633680413	-125.077773372963	0.018052184691768	4.47035423265745	0.032603933923182	32.7049421300732
			0.032603933923182	32.704942130073	0.018052184691768	4.47035423265748	0.0404215652657714	-125.077766295008	0.742541917164009	-37.4810440713343
			0.018052184691768	4.47035423265744	0.032603933923182	32.7049421300732	0.742541917164009	-37.4810440713343	0.0404215652657713	-125.077766295008
270000000	0.0502217559893811	-132.618332063245	0.73807806576121	-52.5395413720307	0.0401558000869955	25.4247015496709	0.0187269901432056	-11.1583441815204
			0.738078065761211	-52.5395413720307	0.0502217559893808	-132.618332063245	0.0187269901432055	-11.1583441815204	0.0401558000869955	25.4247015496708
			0.0401558000869955	25.4247015496709	0.0187269901432055	-11.1583441815204	0.0502217589162748	-132.618325894141	0.738078101214463	-52.5395414769972
			0.0187269901432056	-11.1583441815204	0.0401558000869956	25.4247015496708	0.738078101214463	-52.5395414769972	0.0502217589162749	-132.618325894141
280000000	0.0572323653139329	-142.40164200482	0.733642968363334	-67.5737977401617	0.0453836159211724	16.0477321454367	0.019233878469322	-27.4044659114117
			0.733642968363334	-67.5737977401617	0.0572323653139333	-142.40164200482	0.019233878469322	-27.4044659114119	0.0453836159211723	16.0477321454367
			0.0453836159211724	16.0477321454367	0.019233878469322	-27.4044659114119	0.0572323689435883	-142.401636602441	0.733643004839232	-67.5737978513806
			0.019233878469322	-27.4044659114117	0.0453836159211723	16.0477321454367	0.733643004839232	-67.5737978513806	0.0572323689435888	-142.401636602441
290000000	0.0607956507145829	-153.021745237872	0.729371906217147	-82.5848543427525	0.0478246537536491	5.90161166716805	0.0194962637994732	-43.9142264711173
			0.729371906217147	-82.5848543427525	0.060795650714583	-153.021745237873	0.0194962637994731	-43.9142264711171	0.0478246537536491	5.90161166716802
			0.0478246537536491	5.90161166716804	0.0194962637994731	-43.9142264711171	0.0607956547003133	-153.021740540354	0.729371943681113	-82.5848544578287
			0.0194962637994732	-43.9142264711173	0.0478246537536491	5.90161166716802	0.729371943681113	-82.5848544578287	0.060795654700314	-153.021740540354
300000000	0.0606477881811509	-163.735152833754	0.725370829018022	-97.5790883041315	0.0473303468557542	-4.29313624941444	0.0195001563649333	-60.3210159359837
			0.725370829018022	-97.5790883041315	0.0606477881811507	-163.735152833754	0.0195001563649333	-60.3210159359837	0.0473303468557542	-4.29313624941442
			0.0473303468557542	-4.29313624941443	0.0195001563649332	-60.3210159359837	0.0606477921570253	-163.735148851025	0.725370867462111	-97.5790884198922
			0.0195001563649333	-60.3210159359837	0.0473303468557542	-4.29313624941442	0.725370867462111	-97.5790884198922	0.060647792157026	-163.735148851025
310000000	0.0568542012010546	-173.933592786254	0.721688163639266	-112.566344392707	0.0440101984479344	-13.9283730300782	0.0192920886980951	-76.2952276042464
			0.721688163639266	-112.566344392707	0.0568542012010546	-173.933592786254	0.0192920886980952	-76.2952276042467	0.0440101984479343	-13.9283730300782
			0.0440101984479344	-13.9283730300782	0.0192920886980952	-76.2952276042467	0.0568542047887474	-173.933589597374	0.72168820308135	-112.566344506121
			0.0192920886980951	-76.2952276042464	0.0440101984479343	-13.9283730300782	0.72168820308135	-112.566344506121	0.0568542047887472	-173.933589597374
320000000	0.0498132363322341	177.198423881384	0.71830313765868	-127.557247712099	0.0382265938766239	-22.1631656139597	0.0189694344923984	-91.5918539474132
			0.718303137658679	-127.557247712099	0.0498132363322341	177.198423881385	0.0189694344923984	-91.5918539474131	0.038226593876624	-22.1631656139597
			0.038226593876624	-22.1631656139597	0.0189694344923984	-91.591853947413	0.0498132391447307	177.198426117573	0.718303178134347	-127.557247821144
			0.0189694344923985	-91.5918539474132	0.038226593876624	-22.1631656139597	0.718303178134347	-127.557247821144	0.0498132391447309	177.198426117573
330000000	0.0403411424862113	171.231064805841	0.715132085583978	-142.560376544197	0.030661491392688	-27.3365735652563	0.0186615223786211	-106.11504692642
			0.715132085583978	-142.560376544197	0.040341142486211	171.231064805841	0.0186615223786211	-106.11504692642	0.030661491392688	-27.3365735652564
			0.030661491392688	-27.3365735652563	0.0186615223786211	-106.11504692642	0.0403411441204112	171.231065861311	0.715132127133469	-142.560376648433
			0.0186615223786211	-106.11504692642	0.030661491392688	-27.3365735652564	0.715132127133469	-142.560376648433	0.0403411441204112	171.231065861312
340000000	0.0300064458308713	171.851287353633	0.712050941421623	-157.579974418015	0.0226034107898206	-25.490374193902	0.0184982849752229	-119.984325412709
