#	Hz	S	MA	R	50
10000000	0.0283910822438009	1.09780736668658	0.970791588378082	-5.69065066034529	0.00551621217526052	84.0630561501224	0.000736909029093941	82.5477973343536
			0.970791588378083	-5.69065066034529	0.0283910822438009	1.09780736668666	0.000736909029093921	82.5477973343549	0.00551621217526051	84.0630561501237
			0.00551621217526059	84.0630561501226	0.000736909029093856	82.5477973343531	0.0283910828731991	1.09780721986016	0.97079158901237	-5.69065066028947
			0.000736909029093876	82.5477973343537	0.00551621217526057	84.0630561501238	0.97079158901237	-5.69065066028947	0.0283910828731987	1.09780721986019
20000000	0.03244365333316	-11.6663074700374	0.965382189009343	-10.9724187307531	0.0109290200091148	78.8121384202985	0.00151183651184675	74.7707355943316
			0.965382189009343	-10.9724187307531	0.0324436533331602	-11.6663074700374	0.00151183651184678	74.7707355943272	0.0109290200091148	78.8121384202987
			0.0109290200091147	78.8121384202986	0.0015118365118468	74.7707355943273	0.0324436545932573	-11.6663074440333	0.965382190275769	-10.9724187310944
			0.00151183651184677	74.7707355943317	0.0109290200091147	78.8121384202986	0.965382190275768	-10.9724187310944	0.0324436545932575	-11.6663074440333
30000000	0.0357820040708127	-24.5267160414998	0.961063858951331	-16.1886044678903	0.0162091081258626	73.6277527340151	0.00229902525178599	66.5983195029851
			0.961063858951331	-16.1886044678903	0.0357820040708131	-24.5267160414996	0.00229902525178597	66.5983195029877	0.0162091081258626	73.6277527340148
			0.0162091081258626	73.6277527340152	0.00229902525178596	66.5983195029879	0.0357820059262504	-24.5267156223401	0.961063860845881	-16.1886044692259
			0.00229902525178598	66.5983195029851	0.0162091081258626	73.6277527340148	0.961063860845881	-16.1886044692259	0.03578200592625	-24.5267156223403
40000000	0.0390529778802083	-36.842694279831	0.957259393758185	-21.3703256693821	0.021317397095439	68.4835143119972	0.00308432548141273	58.2596097590309
			0.957259393758185	-21.3703256693821	0.0390529778802077	-36.8426942798315	0.00308432548141277	58.2596097590287	0.021317397095439	68.483514311997
			0.021317397095439	68.4835143119972	0.00308432548141276	58.2596097590288	0.0390529802663685	-36.8426933514948	0.957259396274807	-21.3703256723391
			0.00308432548141273	58.2596097590307	0.021317397095439	68.483514311997	0.957259396274807	-21.3703256723391	0.0390529802663683	-36.842693351495
50000000	0.0424162450950715	-48.4181248892905	0.953747072196962	-26.5288398305767	0.026214146826101	63.3711063577457	0.00385666455855251	49.8427830188618
			0.953747072196962	-26.5288398305767	0.0424162450950718	-48.4181248892904	0.00385666455855255	49.8427830188589	0.026214146826101	63.3711063577453
			0.026214146826101	63.3711063577457	0.00385666455855255	49.8427830188587	0.0424162479333749	-48.4181234221686	0.953747075327615	-26.5288398357666
			0.00385666455855249	49.8427830188617	0.026214146826101	63.3711063577453	0.953747075327615	-26.5288398357666	0.0424162479333746	-48.4181234221687
60000000	0.0458760612570429	-59.2120719264388	0.950417741364894	-31.6693780946657	0.0308609895019071	58.287788188872	0.00460662817292537	41.3941358648701
			0.950417741364894	-31.6693780946657	0.0458760612570427	-59.212071926439	0.0046066281729254	41.3941358648692	0.0308609895019072	58.287788188872
			0.0308609895019072	58.287788188872	0.00460662817292538	41.3941358648693	0.0458760644673332	-59.212069948619	0.950417745099719	-31.6693781026532
			0.00460662817292537	41.3941358648701	0.0308609895019072	58.287788188872	0.950417745099719	-31.6693781026532	0.0458760644673335	-59.2120699486189
70000000	0.0493774400234641	-69.2600303413887	0.947212217053345	-36.79468333388	0.0352219743413351	53.2331263291845	0.00532599472308516	32.9427280136401
			0.947212217053345	-36.79468333388	0.0493774400234643	-69.2600303413889	0.00532599472308525	32.942728013638	0.0352219743413351	53.2331263291845
			0.0352219743413351	53.2331263291845	0.00532599472308525	32.9427280136379	0.04937744353133	-69.260027911087	0.947212221380928	-36.7946833451589
			0.00532599472308517	32.9427280136401	0.0352219743413351	53.2331263291845	0.947212221380928	-36.7946833451588	0.0493774435313303	-69.2600279110871
80000000	0.0528449802108426	-78.6326362897283	0.944097915671126	-41.9063173100239	0.0392642413569967	48.2077511258442	0.00600755239326639	24.5092086985834
			0.944097915671126	-41.9063173100239	0.0528449802108428	-78.6326362897283	0.00600755239326642	24.5092086985824	0.0392642413569967	48.2077511258442
			0.0392642413569967	48.2077511258442	0.00600755239326644	24.5092086985825	0.0528449839506394	-78.6326334755461	0.944097920578818	-41.9063173249987
			0.00600755239326639	24.5092086985834	0.0392642413569967	48.2077511258442	0.944097920578818	-41.9063173249987	0.0528449839506393	-78.632633475546
90000000	0.0562001986735614	-87.4116010278185	0.941058039105503	-47.0052523187086	0.0429584753840279	43.212777134333	0.00664502175119788	16.109695784802
			0.941058039105503	-47.0052523187086	0.0562001986735614	-87.4116010278183	0.00664502175119788	16.1096957848023	0.0429584753840279	43.2127771343331
			0.0429584753840279	43.212777134333	0.00664502175119786	16.1096957848022	0.0562002025887704	-87.4115978972842	0.941058044579789	-47.0052523376808
			0.00664502175119788	16.1096957848021	0.0429584753840279	43.2127771343331	0.941058044579789	-47.0052523376808	0.0562002025887703	-87.4115978972842
100000000	0.0593691888448862	-95.6768105860039	0.938085748219452	-52.0921753737761	0.0462791934179461	38.2495007773303	0.00723302065922675	7.75774444909107
			0.938085748219452	-52.0921753737761	0.0593691888448862	-95.6768105860037	0.00723302065922672	7.75774444909153	0.0462791934179461	38.2495007773304
			0.046279193417946	38.2495007773303	0.00723302065922671	7.75774444909166	0.0593691928871891	-95.6768072001666	0.938085754246344	-52.0921753969355
			0.00723302065922675	7.75774444909118	0.0462791934179461	38.2495007773304	0.938085754246344	-52.0921753969355	0.0593691928871893	-95.6768072001673
110000000	0.0622856894416335	-103.500414094175	0.935180635097116	-57.1676573523363	0.0492048927158445	33.3192376095168	0.00776704529646144	-0.534525258094706
			0.935180635097115	-57.1676573523363	0.0622856894416339	-103.500414094175	0.0077670452964615	-0.53452525809515	0.0492048927158445	33.3192376095167
			0.0492048927158445	33.3192376095168	0.00776704529646151	-0.534525258095153	0.062285693569557	-103.500410505826	0.93518064166255	-57.1676573797564
			0.00776704529646144	-0.534525258094727	0.0492048927158445	33.3192376095167	0.93518064166255	-57.1676573797564	0.0622856935695566	-103.500410505826
120000000	0.0648919932711069	-110.944857788066	0.932346384756599	-62.2322506437774	0.0517180810815819	28.4232423667503	0.00824345595745171	-8.75570218934918
			0.932346384756599	-62.2322506437774	0.0648919932711069	-110.944857788066	0.00824345595745166	-8.75570218934884	0.0517180810815819	28.4232423667503
			0.0517180810815819	28.4232423667503	0.00824345595745167	-8.75570218934885	0.0648919974486693	-110.944854041831	0.932346391846831	-62.2322506754157
			0.00824345595745171	-8.7557021893492	0.0517180810815819	28.4232423667503	0.932346391846831	-62.2322506754157	0.0648919974486695	-110.944854041831
130000000	0.0671388842697063	-118.062905752829	0.929589117939124	-67.2865451855447	0.0538052104258625	23.5626860141555	0.00865946323178743	-16.8945563906069
			0.929589117939124	-67.2865451855447	0.0671388842697059	-118.062905752829	0.00865946323178751	-16.8945563906078	0.0538052104258625	23.5626860141556
			0.0538052104258625	23.5626860141555	0.0086594632317875	-16.8945563906077	0.0671388884652454	-118.062901886072	0.929589125541092	-67.2865452212466
			0.00865946323178744	-16.894556390607	0.0538052104258625	23.5626860141556	0.929589125541091	-67.2865452212466	0.0671388884652456	-118.062901886072
140000000	0.0689851780861899	-124.898516784128	0.926916162138917	-72.3311984264294	0.055456535572751	18.7386777013487	0.00901311375214712	-24.939607499216
			0.926916162138917	-72.3311984264294	0.0689851780861899	-124.898516784128	0.00901311375214719	-24.9396074992166	0.0554565355727509	18.7386777013486
			0.055456535572751	18.7386777013487	0.00901311375214718	-24.9396074992166	0.0689851822714113	-124.898512828121	0.926916170240571	-72.3311984659361
			0.00901311375214712	-24.9396074992161	0.055456535572751	18.7386777013486	0.926916170240571	-72.3311984659361	0.0689851822714113	-124.898512828121
150000000	0.0703971382853843	-131.487980382972	0.924335115947447	-77.3669480495124	0.0566659207626171	13.9523265905776	0.00930327664891684	-32.8787335670792
			0.924335115947447	-77.3669480495124	0.0703971382853843	-131.487980382972	0.00930327664891667	-32.8787335670783	0.0566659207626171	13.9523265905776
			0.0566659207626171	13.9523265905776	0.00930327664891666	-32.8787335670782	0.0703971424346193	-131.487976364051	0.924335124538042	-77.3669480924719
			0.00930327664891684	-32.8787335670792	0.0566659207626171	13.9523265905776	0.924335124538042	-77.3669480924719	0.0703971424346191	-131.487976364051
160000000	0.0713478922854063	-137.861022758951	0.921853129607042	-82.3946128857357	0.0574306158464153	9.20484305341184	0.0095296329098423	-40.6987883319146
			0.921853129607042	-82.3946128857357	0.0713478922854067	-137.86102275895	0.00952963290984225	-40.6987883319143	0.0574306158464154	9.20484305341186
			0.0574306158464154	9.20484305341183	0.00952963290984227	-40.6987883319144	0.0713478963750486	-137.861018699567	0.921853138677364	-82.3946129317166
			0.00952963290984229	-40.6987883319146	0.0574306158464154	9.20484305341186	0.921853138677364	-82.3946129317166	0.0713478963750479	-137.861018699567
170000000	0.071816900312152	-144.041757203099	0.919476354467761	-87.415085590554	0.0577510227151991	4.49768260954981	0.00969267037478863	-48.3852084487128
			0.919476354467761	-87.415085590554	0.0718169003121518	-144.041757203098	0.00969267037478857	-48.3852084487123	0.0577510227151989	4.49768260954979
			0.0577510227151991	4.49768260954981	0.00969267037478858	-48.3852084487123	0.0718169043202314	-144.041753122735	0.919476364010309	-87.4150856390615
			0.00969267037478863	-48.3852084487128	0.0577510227151989	4.49768260954979	0.919476364010308	-87.4150856390615	0.0718169043202317	-144.041753122736
180000000	0.0717894974780179	-150.049432777614	0.917209530162827	-92.4293195653822	0.0576304702180314	-0.167259660708902	0.00979368729110027	-55.9216016127626
			0.917209530162827	-92.4293195653822	0.0717894974780179	-150.049432777615	0.00979368729110021	-55.9216016127624	0.0576304702180312	-0.167259660708814
			0.0576304702180313	-0.167259660708903	0.0097936872911002	-55.9216016127624	0.0717895013838853	-150.049428693579	0.917209540171931	-92.4293196158757
			0.00979368729110026	-55.9216016127626	0.0576304702180312	-0.167259660708813	0.917209540171931	-92.4293196158757	0.0717895013838861	-150.04942869358
190000000	0.0712565139520835	-155.898968399186	0.915055687562629	-97.4383119229109	0.0570750129492749	-4.78739063370161	0.00983480731346322	-63.2893155313824
			0.915055687562629	-97.4383119229109	0.0712565139520828	-155.898968399186	0.0098348073134632	-63.2893155313822	0.0570750129492749	-4.78739063370163
			0.0570750129492748	-4.78739063370161	0.00983480731346319	-63.2893155313821	0.0712565177361693	-155.898964327309	0.915055698034501	-97.4383119748217
			0.00983480731346321	-63.2893155313824	0.0570750129492749	-4.78739063370163	0.915055698034501	-97.4383119748217	0.0712565177361688	-155.898964327309
200000000	0.0702139715700623	-161.601266719046	0.913015951276924	-102.443083846407	0.0560932661404467	-9.35907427719376	0.00981900857867884	-70.4669993551104
			0.913015951276924	-102.443083846407	0.0702139715700624	-161.601266719046	0.00981900857867871	-70.46699935511	0.0560932661404467	-9.35907427719378
			0.0560932661404467	-9.35907427719376	0.00981900857867874	-70.46699935511	0.070213975213696	-161.601262674315	0.913015962209663	-102.443083899158
			0.00981900857867883	-70.4669993551104	0.0560932661404467	-9.35907427719377	0.913015962209663	-102.443083899158	0.0702139752136962	-161.601262674316
210000000	0.0686628527049918	-167.163293524198	0.911089429307825	-107.444659389735	0.0546962858209877	-13.8771643785107	0.00975016896066535	-77.4301867901177
			0.911089429307825	-107.444659389735	0.0686628527049918	-167.163293524198	0.00975016896066531	-77.4301867901177	0.0546962858209877	-13.8771643785107
			0.0546962858209877	-13.8771643785107	0.0097501689606653	-77.4301867901176	0.0686628561902609	-167.163289521377	0.911089440701349	-107.444659442758
			0.00975016896066536	-77.4301867901177	0.0546962858209877	-13.8771643785107	0.911089440701349	-107.444659442758	0.0686628561902608	-167.163289521377
220000000	0.0666089369465845	-172.587886257116	0.909273180215177	-112.444043559939	0.0528975008398309	-18.334356376898	0.00963312863463621	-84.1509579110322
			0.909273180215177	-112.444043559939	0.0666089369465845	-172.587886257116	0.00963312863463621	-84.1509579110322	0.0528975008398309	-18.334356376898
			0.0528975008398309	-18.334356376898	0.00963312863463622	-84.1509579110322	0.0666089402562137	-172.587882311372	0.909273192071113	-112.444043612696
			0.0096331286346362	-84.1509579110322	0.0528975008398309	-18.334356376898	0.909273192071113	-112.444043612696	0.0666089402562137	-172.587882311372
230000000	0.0640627027201093	-177.873216140572	0.907562250201012	-117.442200390316	0.0507127018590695	-22.7202616687962	0.00947376929200235	-90.5977800143044
			0.907562250201012	-117.442200390316	0.0640627027201094	-177.873216140572	0.00947376929200233	-90.5977800143042	0.0507127018590695	-22.7202616687963
			0.0507127018590695	-22.7202616687962	0.00947376929200234	-90.5977800143043	0.0640627058373528	-177.873212268191	0.907562262522536	-117.442200442309
			0.00947376929200235	-90.5977800143044	0.0507127018590695	-22.7202616687963	0.907562262522536	-117.442200442309	0.0640627058373531	-177.873212268192
240000000	0.061039295080025	176.98823890128	0.905949773983196	-122.440031630226	0.0481600930147006	-27.0200406188721	0.00927910612831686	-96.7356924658787
			0.905949773983196	-122.440031630226	0.0610392950800245	176.98823890128	0.00927910612831671	-96.7356924658782	0.0481600930147006	-27.020040618872
			0.0481600930147006	-27.0200406188721	0.0092791061283167	-96.7356924658782	0.0610392979885515	176.988242682034	0.905949786774816	-122.440031681021
			0.00927910612831686	-96.7356924658786	0.0481600930147006	-27.020040618872	0.905949786774816	-122.440031681021	0.0610392979885514	176.988242682034
250000000	0.0575585695144059	172.011473503421	0.904427134236098	-127.438356633689	0.0452604163934933	-31.2123076446553	0.00905738311999466	-102.527089797597
			0.904427134236098	-127.438356633689	0.0575585695144058	172.011473503422	0.00905738311999476	-102.527089797598	0.0452604163934933	-31.2123076446554
			0.0452604163934933	-31.2123076446553	0.00905738311999476	-102.527089797597	0.0575585721981603	172.011477171185	0.904427147503416	-127.438356682922
			0.00905738311999466	-102.527089797597	0.0452604163934933	-31.2123076446554	0.904427147503416	-127.438356682922	0.05755857219816	172.011477171185
260000000	0.0536452390968117	167.221975198455	0.902984174716437	-132.437894008328	0.042037171484014	-35.2657868617143	0.0088181528503145	-107.933465037716
			0.902984174716437	-132.437894008328	0.0536452390968116	167.221975198455	0.00881815285031454	-107.933465037716	0.042037171484014	-35.2657868617144
			0.0420371714840141	-35.2657868617143	0.00881815285031454	-107.933465037716	0.0536452415398191	167.221978727214	0.902984188465871	-132.437894055718
			0.00881815285031451	-107.933465037716	0.042037171484014	-35.2657868617144	0.902984188465872	-132.437894055718	0.0536452415398191	167.221978727214
270000000	0.0493291885809147	162.660923791911	0.901609461959014	-137.439245576427	0.0385169794457176	-39.1337248424796	0.00857230803776949	-112.918570646337
			0.901609461959014	-137.439245576427	0.0493291885809148	162.660923791911	0.00857230803776949	-112.918570646337	0.0385169794457176	-39.1337248424795
			0.0385169794457176	-39.1337248424796	0.0085723080377695	-112.918570646337	0.0493291907669911	162.660927148722	0.9016094761975	-137.439245621782
			0.0085723080377695	-112.918570646337	0.0385169794457176	-39.1337248424795	0.9016094761975	-137.439245621782	0.0493291907669913	162.660927148721
280000000	0.0446460974479952	158.394455868479	0.900290589645067	-142.442883187806	0.0347302047055028	-42.7440627258069	0.00833201294774613	-117.453458783651
			0.900290589645066	-142.442883187806	0.0446460974479949	158.394455868479	0.00833201294774619	-117.453458783651	0.0347302047055027	-42.7440627258071
			0.0347302047055028	-42.7440627258069	0.00833201294774619	-117.453458783651	0.0446460993602557	158.394459009996	0.900290604379745	-142.44288323103
			0.00833201294774613	-117.453458783651	0.0347302047055027	-42.7440627258071	0.900290604379745	-142.44288323103	0.0446460993602559	158.394459009996
290000000	0.0396386944536552	154.531022530169	0.899014518488818	-147.449138897913	0.0307120937900607	-45.9810848229268	0.00811046264014992	-121.523628289962
			0.899014518488817	-147.449138897913	0.0396386944536552	154.531022530169	0.00811046264014976	-121.523628289961	0.0307120937900607	-45.9810848229267
			0.0307120937900607	-45.9810848229268	0.00811046264014975	-121.523628289961	0.039638696073678	154.531025397098	0.89901453372672	-147.449138939007
			0.00811046264014992	-121.523628289962	0.0307120937900607	-45.9810848229267	0.89901453372672	-147.449138939007	0.0396386960736779	154.531025397098
300000000	0.0343594171078654	151.256098256278	0.897767942883847	-152.458198973565	0.0265050641010547	-48.648639822993	0.00792138736050682	-125.137837495831
			0.897767942883847	-152.458198973565	0.0343594171078652	151.256098256277	0.00792138736050682	-125.137837495831	0.0265050641010547	-48.6486398229931
			0.0265050641010547	-48.648639822993	0.00792138736050681	-125.137837495831	0.0343594184141412	151.256100764307	0.897767958631589	-152.458199012624
			0.00792138736050682	-125.137837495831	0.0265050641010547	-48.6486398229931	0.897767958631589	-152.458199012624	0.034359418414141	151.256100764307
310000000	0.0288764956305856	148.907455453836	0.896537673783258	-157.47010210551	0.0221638166022506	-50.3899032644201	0.00777823859123818	-128.336938000232
			0.896537673783258	-157.47010210551	0.0288764956305855	148.907455453836	0.00777823859123841	-128.336938000233	0.0221638166022506	-50.3899032644204
			0.0221638166022506	-50.3899032644202	0.00777823859123841	-128.336938000233	0.0288764965955104	148.907457478914	0.896537690046743	-157.47010214272
			0.00777823859123817	-128.336938000232	0.0221638166022506	-50.3899032644204	0.896537690046743	-157.47010214272	0.0288764965955107	148.907457478915
320000000	0.02328937611491	148.155238651506	0.895311025583369	-162.484742087393	0.0177682387640169	-50.4937885955805	0.00769306589130051	-131.199641828369
			0.895311025583369	-162.484742087393	0.0232893761149103	148.155238651507	0.00769306589130042	-131.199641828368	0.017768238764017	-50.4937885955801
			0.0177682387640169	-50.4937885955805	0.00769306589130041	-131.199641828368	0.0232893766986252	148.155240009699	0.895311042367526	-162.48474212302
			0.00769306589130051	-131.199641828369	0.017768238764017	-50.4937885955801	0.895311042367525	-162.48474212302	0.0232893766986252	148.155240009699
330000000	0.0177734299210624	150.481105393337	0.894076193392037	-167.501875065374	0.0134610747634111	-47.3751233762624	0.00767522424274845	-133.841423344633
			0.894076193392037	-167.501875065374	0.0177734299210624	150.481105393337	0.00767522424274838	-133.841423344632	0.013461074763411	-47.3751233762626
			0.013461074763411	-47.3751233762623	0.00767522424274836	-133.841423344632	0.0177734300587853	150.481105846957	0.894076210700587	-167.501875099758
			0.00767522424274843	-133.841423344633	0.013461074763411	-47.3751233762625	0.894076210700587	-167.501875099758	0.0177734300587856	150.481105846957
